Freq.	V(out)/V(in)
1.00000000000000e-001	-1.01068293809539e-005,-1.00530684250228e-002
1.12201845430196e-001	-1.27237410119928e-005,-1.12797253439618e-002
1.25892541179417e-001	-1.60182356179965e-005,-1.26560558265996e-002
1.41253754462275e-001	-2.01657555111561e-005,-1.42003223075625e-002
1.58489319246111e-001	-2.53871688106210e-005,-1.59330153683191e-002
1.77827941003892e-001	-3.19605309487525e-005,-1.78771255267374e-002
1.99526231496888e-001	-4.02358913024030e-005,-2.00584481547197e-002
2.23872113856834e-001	-5.06539332762228e-005,-2.25059255516103e-002
2.51188643150958e-001	-6.37694402049557e-005,-2.52520306865154e-002
2.81838293126445e-001	-8.02808362671951e-005,-2.83331976648934e-002
3.16227766016838e-001	-1.01067374854995e-004,-3.17903045796442e-002
3.54813389233575e-001	-1.27235953679318e-004,-3.56692150806747e-002
3.98107170553497e-001	-1.60180047885519e-004,-4.00213857458954e-002
4.46683592150963e-001	-2.01653896728092e-004,-4.49045471671321e-002
5.01187233627272e-001	-2.53865889992443e-004,-5.03834675823858e-002
5.62341325190348e-001	-3.19596120162903e-004,-5.65308088962086e-002
6.30957344480192e-001	-4.02344349058510e-004,-6.34280860358330e-002
7.07945784384137e-001	-5.06516250696825e-004,-7.11667417923632e-002
7.94328234724280e-001	-6.37657819968776e-004,-7.98493505893608e-002
8.91250938133744e-001	-8.02750385033711e-004,-8.95909659939501e-002
9.99999999999999e-001	-1.01058186228583e-003,-1.00520628215787e-001
1.12201845430196e+000	-1.27221391106862e-003,-1.12783049288660e-001
1.25892541179417e+000	-1.60156968599523e-003,-1.26540495036720e-001
1.41253754462275e+000	-2.01617320192646e-003,-1.41974884197460e-001
1.58489319246111e+000	-2.53807923417832e-003,-1.59290126063461e-001
1.77827941003892e+000	-3.19504255971696e-003,-1.78714718502787e-001
1.99526231496888e+000	-4.02198767370379e-003,-2.00504627914089e-001
2.23872113856834e+000	-5.06285545688915e-003,-2.24946471119320e-001
2.51188643150958e+000	-6.37292229871719e-003,-2.52361015752232e-001
2.81838293126445e+000	-8.02171068895473e-003,-2.83107009449965e-001
3.16227766016837e+000	-1.00966391774085e-002,-3.17585337804113e-001
3.54813389233575e+000	-1.27075948513465e-002,-3.56243494757272e-001
3.98107170553496e+000	-1.59926541000874e-002,-3.99580324400347e-001
4.46683592150962e+000	-2.01252283295586e-002,-4.48150956411795e-001
5.01187233627271e+000	-2.53229710295231e-002,-5.02571803840092e-001
5.62341325190348e+000	-3.18588510316926e-002,-5.63525414979201e-001
6.30957344480192e+000	-4.00748723995740e-002,-6.31764861887163e-001
7.07945784384136e+000	-5.03990002016417e-002,-7.08117195004726e-001
7.94328234724279e+000	-6.33659253987438e-002,-7.93485281370322e-001
8.91250938133743e+000	-7.96423565893660e-002,-8.88847054518504e-001
9.99999999999997e+000	-1.00057536457695e-001,-9.95250815460534e-001
1.12201845430196e+001	-1.25639605932072e-001,-1.11380471282428e+000
1.25892541179416e+001	-1.57658216089037e-001,-1.24565787575520e+000
1.41253754462275e+001	-1.97673322116254e-001,-1.39196986689961e+000
1.58489319246111e+001	-2.47589249920275e-001,-1.55386418473663e+000
1.77827941003892e+001	-3.09711722017778e-001,-1.73236055219026e+000
1.99526231496887e+001	-3.86803340092329e-001,-1.92827986223347e+000
2.23872113856833e+001	-4.82129807866692e-001,-2.14211525940428e+000
2.51188643150957e+001	-5.99484763937210e-001,-2.37386351523013e+000
2.81838293126444e+001	-7.43175527456220e-001,-2.62281352274133e+000
3.16227766016837e+001	-9.17945888544931e-001,-2.88729463479735e+000
3.54813389233574e+001	-1.12880675278252e+000,-3.16439809813888e+000
3.98107170553496e+001	-1.38074377718283e+000,-3.44970100062943e+000
4.46683592150961e+001	-1.67827747710350e+000,-3.73704350039765e+000
5.01187233627270e+001	-2.02487098650800e+000,-4.01843310130587e+000
5.62341325190347e+001	-2.42221792622329e+000,-4.28416611372582e+000
6.30957344480191e+001	-2.86949664502580e+000,-4.52325301564248e+000
7.07945784384135e+001	-3.36273609573591e+000,-4.72419662556011e+000
7.94328234724278e+001	-3.89447863808963e+000,-4.87609255100393e+000
8.91250938133742e+001	-4.45391478158163e+000,-4.96991199169231e+000
9.99999999999995e+001	-5.02758247508601e+000,-4.99972459888749e+000
1.12201845430196e+002	-5.60057814683483e+000,-4.96357588917004e+000
1.25892541179416e+002	-6.15806748523711e+000,-4.86378848582463e+000
1.41253754462275e+002	-6.68678148675623e+000,-4.70660359370461e+000
1.58489319246111e+002	-7.17618847376968e+000,-4.50126192689028e+000
1.77827941003891e+002	-7.61914294940222e+000,-4.25876389214024e+000
1.99526231496887e+002	-8.01197293762204e+000,-3.99059432510519e+000
2.23872113856833e+002	-8.35410870607770e+000,-3.70764660206730e+000
2.51188643150957e+002	-8.64743155489445e+000,-3.41947590615121e+000
2.81838293126444e+002	-8.89552598644423e+000,-3.13390356724973e+000
3.16227766016836e+002	-9.10297560815926e+000,-2.85691852699021e+000
3.54813389233574e+002	-9.27478378667701e+000,-2.59278771249766e+000
3.98107170553495e+002	-9.41594745493166e+000,-2.34428605217402e+000
4.46683592150961e+002	-9.53117683327973e+000,-2.11297430066177e+000
5.01187233627270e+002	-9.62473551952153e+000,-1.89947594622944e+000
5.62341325190346e+002	-9.70036998359459e+000,-1.70372544933041e+000
6.30957344480190e+002	-9.76129965317813e+000,-1.52517571232339e+000
7.07945784384134e+002	-9.81024426506807e+000,-1.36296274389896e+000
7.94328234724277e+002	-9.84947131668740e+000,-1.21603103722051e+000
8.91250938133740e+002	-9.88085192869097e+000,-1.08322562499060e+000
9.99999999999994e+002	-9.90591773394868e+000,-9.63357326155998e-001
1.12201845430196e+003	-9.92591452186632e+000,-8.55247244660004e-001
1.25892541179416e+003	-9.94185047643822e+000,-7.57755691609453e-001
1.41253754462275e+003	-9.95453819172787e+000,-6.69799708729020e-001
1.58489319246110e+003	-9.96463045157532e+000,-5.90362441937329e-001
1.77827941003891e+003	-9.97265019919096e+000,-5.18496820117764e-001
1.99526231496887e+003	-9.97901532820121e+000,-4.53325352193238e-001
2.23872113856832e+003	-9.98405899107145e+000,-3.94037355197254e-001
2.51188643150956e+003	-9.98804610445507e+000,-3.39884546106726e-001
2.81838293126443e+003	-9.99118667273759e+000,-2.90175647416874e-001
3.16227766016836e+003	-9.99364647463842e+000,-2.44270449208562e-001
3.54813389233573e+003	-9.99555557703920e+000,-2.01573620524411e-001
3.98107170553494e+003	-9.99701506271769e+000,-1.61528455579368e-001
4.46683592150960e+003	-9.99810228794031e+000,-1.23610664329148e-001
5.01187233627269e+003	-9.99887492311994e+000,-8.73222636243482e-002
5.62341325190345e+003	-9.99937397484821e+000,-5.21855882307525e-002
6.30957344480189e+003	-9.99962593970683e+000,-1.77374157713638e-002
7.07945784384133e+003	-9.99964419813050e+000,1.64768171534860e-002
7.94328234724276e+003	-9.99942971886007e+000,5.09087410636444e-002
8.91250938133739e+003	-9.99897110975881e+000,8.60127613033144e-002
9.99999999999992e+003	-9.99824401753175e+000,1.22251788928524e-001
1.12201845430195e+004	-9.99720984575539e+000,1.60103035044384e-001
1.25892541179416e+004	-9.99581372615607e+000,2.00063903847019e-001
1.41253754462274e+004	-9.99398164082813e+000,2.42658010174179e-001
1.58489319246110e+004	-9.99161655160690e+000,2.88441332127039e-001
1.77827941003891e+004	-9.98859334569246e+000,3.38008486187135e-001
1.99526231496886e+004	-9.98475235255706e+000,3.91999078140944e-001
2.23872113856832e+004	-9.97989112516095e+000,4.51104033699460e-001
2.51188643150956e+004	-9.97375410816175e+000,5.16071741966228e-001
2.81838293126443e+004	-9.96601973791493e+000,5.87713744734192e-001
3.16227766016835e+004	-9.95628443647652e+000,6.66909564157592e-001
3.54813389233572e+004	-9.94404288089844e+000,7.54610066577530e-001
3.98107170553494e+004	-9.92866386192008e+000,8.51838493441540e-001
4.46683592150959e+004	-9.90936101383485e+000,9.59687930012137e-001
5.01187233627268e+004	-9.88515773476692e+000,1.07931350510066e+000
5.62341325190344e+004	-9.85484577919033e+000,1.21191699740190e+000
6.30957344480187e+004	-9.81693737641985e+000,1.35872075115722e+000
7.07945784384131e+004	-9.76961143258578e+000,1.52092688274119e+000
7.94328234724274e+004	-9.71065557850403e+000,1.69965674360927e+000
8.91250938133737e+004	-9.63740774876668e+000,1.89586463331825e+000
9.99999999999990e+004	-9.54670386511520e+000,2.11021911407746e+000
1.12201845430195e+005	-9.43484226886726e+000,2.34294547424870e+000
1.25892541179415e+005	-9.29758086594099e+000,2.59362473717222e+000
1.41253754462274e+005	-9.13018918364174e+000,2.86094927677140e+000
1.58489319246110e+005	-8.92758359744436e+000,3.14244400115540e+000
1.77827941003891e+005	-8.68457754939733e+000,3.43417648467217e+000
1.99526231496886e+005	-8.39627574500402e+000,3.73049963328937e+000
2.23872113856832e+005	-8.05862680210639e+000,4.02389421589513e+000
2.51188643150955e+005	-7.66911747850911e+000,4.30499933727652e+000
2.81838293126442e+005	-7.22754186793836e+000,4.56292482197206e+000
3.16227766016835e+005	-6.73671799347476e+000,4.78591529300018e+000
3.54813389233572e+005	-6.20297209971449e+000,4.96236981654286e+000
3.98107170553493e+005	-5.63619856835797e+000,5.08211680529035e+000
4.46683592150958e+005	-5.04935948579345e+000,5.13772987313143e+000
5.01187233627267e+005	-4.45741719072553e+000,5.12559693690194e+000
5.62341325190343e+005	-3.87585982882656e+000,5.04647133061451e+000
6.30957344480186e+005	-3.31911543459699e+000,4.90535401472206e+000
7.07945784384130e+005	-2.79918911195581e+000,4.71073970270253e+000
7.94328234724273e+005	-2.32478054867606e+000,4.47342937779344e+000
8.91250938133736e+005	-1.90098441592496e+000,4.20519815882809e+000
9.99999999999989e+005	-1.52951573624954e+000,3.91758910094278e+000
1.12201845430195e+006	-1.20929625845114e+000,3.62100989723127e+000
1.25892541179415e+006	-9.37207480560328e-001,3.32419396352544e+000
1.41253754462274e+006	-7.08845724029853e-001,3.03399450286451e+000
1.58489319246110e+006	-5.19172908242410e-001,2.75542918184557e+000
1.77827941003890e+006	-3.63015354386266e-001,2.49188088550333e+000
1.99526231496886e+006	-2.35406634506224e-001,2.24537264430153e+000
2.23872113856831e+006	-1.31795605832425e-001,2.01685767795103e+000
2.51188643150955e+006	-4.81506407089837e-002,1.80648853203828e+000
2.81838293126442e+006	1.90088392920119e-002,1.61384761064426e+000
3.16227766016834e+006	7.26272002901672e-002,1.43813385104890e+000
3.54813389233571e+006	1.15153804693882e-001,1.27830759759006e+000
3.98107170553492e+006	1.48596619287299e-001,1.13319931174078e+000
4.46683592150958e+006	1.74579201868961e-001,1.00158895712002e+000
5.01187233627266e+006	1.94395769066547e-001,8.82262759729488e-001
5.62341325190342e+006	2.09061687907285e-001,7.74053254549612e-001
6.30957344480185e+006	2.19358534817848e-001,6.75867491250746e-001
7.07945784384129e+006	2.25874065478483e-001,5.86707179398189e-001
7.94328234724271e+006	2.29038216306105e-001,5.05683469914043e-001
8.91250938133734e+006	2.29156716280941e-001,4.32027981255572e-001
1.00000000000000e+007	2.26444032541567e-001,3.65100554417907e-001
